<Qucs Dataset 0.0.15>
<indep x 10>
  +5.00000000000e+00
  +1.00000000000e+01
  +1.50000000000e+01
  +2.00000000000e+01
  +2.50000000000e+01
  +3.00000000000e+01
  +3.50000000000e+01
  +4.00000000000e+01
  +4.50000000000e+01
  +5.00000000000e+01
</indep>
<dep V1.I x>
  -6.20000000000e-01
  -4.65000000000e-01
  -3.72000000000e-01
  -3.10000000000e-01
  -2.65714285714e-01
  -2.32500000000e-01
  -2.06666666667e-01
  -1.86000000000e-01
  -1.69090909091e-01
  -1.55000000000e-01
</dep>
<dep izeja.V x>
  +3.10000000000e+00
  +4.65000000000e+00
  +5.58000000000e+00
  +6.20000000000e+00
  +6.64285714286e+00
  +6.97500000000e+00
  +7.23333333333e+00
  +7.44000000000e+00
  +7.60909090909e+00
  +7.75000000000e+00
</dep>
<dep _net0.V x>
  +9.30000000000e+00
  +9.30000000000e+00
  +9.30000000000e+00
  +9.30000000000e+00
  +9.30000000000e+00
  +9.30000000000e+00
  +9.30000000000e+00
  +9.30000000000e+00
  +9.30000000000e+00
  +9.30000000000e+00
</dep>
